
T33BC 000:123 SEGGER J-Link V4.98e Log File (0001ms, 0060ms total)
T33BC 000:123 DLL Compiled: May  5 2015 11:00:52 (0001ms, 0060ms total)
T33BC 000:123 Logging started @ 2015-07-14 11:58 (0001ms, 0060ms total)
T33BC 000:124 JLINK_SetWarnOutHandler(...) (0000ms, 0060ms total)
T33BC 000:124 JLINK_OpenEx(...)
Firmware: J-Link V9 compiled May 22 2015 17:20:50
Hardware: V9.30
S/N: 269301230
OEM: SEGGER-EDU
Feature(s): FlashBP, GDB  returns O.K. (0055ms, 0115ms total)
T33BC 000:179 JLINK_SetErrorOutHandler(...) (0000ms, 0115ms total)
T33BC 000:179 JLINK_ExecCommand("ProjectFile = "C:\Users\Josie\Documents\OnPersonDevice_Keil\Blinky_LED\JLinkSettings.ini"", ...)  returns 0x00 (0002ms, 0117ms total)
T33BC 000:181 JLINK_ExecCommand("Device = MKL25Z64xxx4", ...)Device "MKL25Z64XXX4" selected.  returns 0x00 (0004ms, 0121ms total)
T33BC 000:185 JLINK_ExecCommand("DisableConnectionTimeout", ...)  returns 0x01 (0000ms, 0121ms total)
T33BC 000:185 JLINK_GetHardwareVersion()  returns 0x16B48 (0000ms, 0121ms total)
T33BC 000:185 JLINK_GetDLLVersion()  returns 49805 (0000ms, 0121ms total)
T33BC 000:189 JLINK_GetDLLVersion()  returns 49805 (0000ms, 0121ms total)
T33BC 000:189 JLINK_GetCompileDateTime() (0000ms, 0121ms total)
T33BC 000:194 JLINK_GetFirmwareString(...) (0001ms, 0122ms total)
T33BC 000:196 JLINK_GetHardwareVersion()  returns 0x16B48 (0000ms, 0122ms total)
T33BC 000:219 JLINK_TIF_Select(JLINKARM_TIF_SWD)  returns 0x00 (0002ms, 0124ms total)
T33BC 000:221 JLINK_SetSpeed(1000) (0001ms, 0125ms total)
T33BC 000:222 JLINK_GetId() >0x108 TIF>Found SWD-DP with ID 0x0BC11477 >0x0D TIF> >0x28 TIF> >0x0D TIF> >0x28 TIF> >0x0D TIF> >0x21 TIF> >0x0D TIF> >0x28 TIF> >0x0D TIF> >0x21 TIF> >0x0D TIF> >0x21 TIF> >0x0D TIF> >0x21 TIF> >0x0D TIF> >0x21 TIF> >0x0D TIF> >0x21 TIF> >0x0D TIF> >0x21 TIF> >0x0D TIF> >0x21 TIF> >0x0D TIF> >0x21 TIF> >0x0D TIF> >0x21 TIF> >0x0D TIF> >0x21 TIF> >0x0D TIF> >0x28 TIF> >0x0D TIF> >0x28 TIF> >0x0D TIF> >0x28 TIF> >0x0D TIF> >0x28 TIF> >0x0D TIF> >0x28 TIF> >0x0D TIF>
 >0x28 TIF> >0x0D TIF> >0x28 TIF> >0x0D TIF> >0x21 TIF> >0x0D TIF> >0x21 TIF> >0x0D TIF> >0x28 TIF> >0x108 TIF>Found SWD-DP with ID 0x0BC11477 >0x0D TIF> >0x21 TIF> >0x0D TIF> >0x28 TIF> >0x0D TIF> >0x28 TIF> >0x0D TIF> >0x21 TIF> >0x0D TIF> >0x28 TIF> >0x0D TIF> >0x21 TIF> >0x0D TIF> >0x21 TIF> >0x0D TIF> >0x21 TIF> >0x0D TIF> >0x28 TIF> >0x0D TIF> >0x28 TIF> >0x0D TIF> >0x28 TIF> >0x0D TIF> >0x21 TIF> >0x0D TIF> >0x21 TIF> >0x0D TIF> >0x28 TIF> >0x0D TIF> >0x21 TIF> >0x0D TIF> >0x21 TIF> >0x0D TIF>
 >0x21 TIF> >0x0D TIF> >0x21 TIF> >0x0D TIF> >0x21 TIF> >0x0D TIF> >0x28 TIF> >0x0D TIF> >0x21 TIF> >0x0D TIF> >0x21 TIF> >0x0D TIF> >0x28 TIF> >0x0D TIF> >0x21 TIF> >0x0D TIF> >0x21 TIF> >0x0D TIF> >0x21 TIF> >0x0D TIF> >0x21 TIF> >0x0D TIF> >0x21 TIF> >0x0D TIF> >0x28 TIF> >0x0D TIF> >0x21 TIF> >0x0D TIF> >0x21 TIF> >0x0D TIF> >0x21 TIF> >0x0D TIF> >0x28 TIF> >0x0D TIF> >0x28 TIF> >0x0D TIF> >0x21 TIF> >0x0D TIF> >0x28 TIF> >0x0D TIF> >0x28 TIF> >0x0D TIF> >0x28 TIF> >0x0D TIF> >0x21 TIF> >0x0D TIF>
 >0x21 TIF> >0x0D TIF> >0x28 TIF> >0x0D TIF> >0x21 TIF> >0x0D TIF> >0x21 TIF>Found Cortex-M0 r0p0, Little endian. -- CPU_WriteMem(4 bytes @ 0xE0002000) -- CPU_ReadMem(4 bytes @ 0xE000EDF0) -- CPU_ReadMem(4 bytes @ 0xE0002000)FPUnit: 2 code (BP) slots and 0 literal slots -- CPU_ReadMem(4 bytes @ 0xE000EDFC) -- CPU_ReadMem(4 bytes @ 0xE0001000) -- CPU_WriteMem(4 bytes @ 0xE0001000)CoreSight components:ROMTbl 0 @ F0002000 -- CPU_ReadMem(16 bytes @ 0xF0002000) -- CPU_ReadMem(16 bytes @ 0xF0000FF0)
 -- CPU_ReadMem(16 bytes @ 0xF0000FE0)ROMTbl 0 [0]: FFFFE000, CID: B105900D, PID: 000BB932 MTB-M0+ -- CPU_ReadMem(16 bytes @ 0xF0001FF0) -- CPU_ReadMem(16 bytes @ 0xF0001FE0)ROMTbl 0 [1]: FFFFF000, CID: B105900D, PID: 0008E000 MTBDWT -- CPU_ReadMem(16 bytes @ 0xE00FFFF0) -- CPU_ReadMem(16 bytes @ 0xE00FFFE0)ROMTbl 0 [2]: F00FD000, CID: B105100D, PID: 000BB4C0 ROM TableROMTbl 1 @ E00FF000 -- CPU_ReadMem(16 bytes @ 0xE00FF000) -- CPU_ReadMem(16 bytes @ 0xE000EFF0) -- CPU_ReadMem(16 bytes @ 0xE000EFE0)
ROMTbl 1 [0]: FFF0F000, CID: B105E00D, PID: 000BB008 SCS -- CPU_ReadMem(16 bytes @ 0xE0001FF0) -- CPU_ReadMem(16 bytes @ 0xE0001FE0)ROMTbl 1 [1]: FFF02000, CID: B105E00D, PID: 000BB00A DWT -- CPU_ReadMem(16 bytes @ 0xE0002FF0) -- CPU_ReadMem(16 bytes @ 0xE0002FE0)ROMTbl 1 [2]: FFF03000, CID: B105E00D, PID: 000BB00B FPB >0x0D TIF> >0x21 TIF>  returns 0x0BC11477 (0123ms, 0248ms total)
T33BC 000:345 JLINK_GetDLLVersion()  returns 49805 (0000ms, 0248ms total)
T33BC 000:345 JLINK_CORE_GetFound()  returns 0x60000FF (0000ms, 0248ms total)
T33BC 000:345 JLINK_GetDebugInfo(0x100) -- Value=0xF0002003  returns 0x00 (0000ms, 0248ms total)
T33BC 000:346 JLINK_ReadMem (0xF0002000, 0x0020 Bytes, ...) -- CPU is running -- CPU_ReadMem(32 bytes @ 0xF0002000) - Data: 03 E0 FF FF 03 F0 FF FF 03 D0 0F F0 00 00 00 00 ...  returns 0x00 (0001ms, 0249ms total)
T33BC 000:347 JLINK_ReadMem (0xF0000FF0, 0x0010 Bytes, ...) -- CPU is running -- CPU_ReadMem(16 bytes @ 0xF0000FF0) - Data: 0D 00 00 00 90 00 00 00 05 00 00 00 B1 00 00 00  returns 0x00 (0002ms, 0251ms total)
T33BC 000:349 JLINK_ReadMem (0xF0000FD0, 0x0020 Bytes, ...) -- CPU is running -- CPU_ReadMem(32 bytes @ 0xF0000FD0) - Data: 04 00 00 00 00 00 00 00 00 00 00 00 00 00 00 00 ...  returns 0x00 (0001ms, 0252ms total)
T33BC 000:350 JLINK_ReadMem (0xF0001FF0, 0x0010 Bytes, ...) -- CPU is running -- CPU_ReadMem(16 bytes @ 0xF0001FF0) - Data: 0D 00 00 00 90 00 00 00 05 00 00 00 B1 00 00 00  returns 0x00 (0001ms, 0253ms total)
T33BC 000:351 JLINK_ReadMem (0xF0001FD0, 0x0020 Bytes, ...) -- CPU is running -- CPU_ReadMem(32 bytes @ 0xF0001FD0) - Data: 00 00 00 00 00 00 00 00 00 00 00 00 00 00 00 00 ...  returns 0x00 (0001ms, 0254ms total)
T33BC 000:352 JLINK_ReadMem (0xE00FFFF0, 0x0010 Bytes, ...) -- CPU is running -- CPU_ReadMem(16 bytes @ 0xE00FFFF0) - Data: 0D 00 00 00 10 00 00 00 05 00 00 00 B1 00 00 00  returns 0x00 (0002ms, 0256ms total)
T33BC 000:354 JLINK_ReadMem (0xE00FFFD0, 0x0020 Bytes, ...) -- CPU is running -- CPU_ReadMem(32 bytes @ 0xE00FFFD0) - Data: 04 00 00 00 00 00 00 00 00 00 00 00 00 00 00 00 ...  returns 0x00 (0001ms, 0257ms total)
T33BC 000:355 JLINK_ReadMem (0xE00FF000, 0x0020 Bytes, ...) -- CPU is running -- CPU_ReadMem(32 bytes @ 0xE00FF000) - Data: 03 F0 F0 FF 03 20 F0 FF 03 30 F0 FF 00 00 00 00 ...  returns 0x00 (0002ms, 0259ms total)
T33BC 000:357 JLINK_ReadMem (0xE000EFF0, 0x0010 Bytes, ...) -- CPU is running -- CPU_ReadMem(16 bytes @ 0xE000EFF0) - Data: 0D 00 00 00 E0 00 00 00 05 00 00 00 B1 00 00 00  returns 0x00 (0001ms, 0260ms total)
T33BC 000:358 JLINK_ReadMem (0xE000EFD0, 0x0020 Bytes, ...) -- CPU is running -- CPU_ReadMem(32 bytes @ 0xE000EFD0) - Data: 04 00 00 00 00 00 00 00 00 00 00 00 00 00 00 00 ...  returns 0x00 (0001ms, 0261ms total)
T33BC 000:359 JLINK_ReadMem (0xE0001FF0, 0x0010 Bytes, ...) -- CPU is running -- CPU_ReadMem(16 bytes @ 0xE0001FF0) - Data: 0D 00 00 00 E0 00 00 00 05 00 00 00 B1 00 00 00  returns 0x00 (0001ms, 0262ms total)
T33BC 000:360 JLINK_ReadMem (0xE0001FD0, 0x0020 Bytes, ...) -- CPU is running -- CPU_ReadMem(32 bytes @ 0xE0001FD0) - Data: 04 00 00 00 00 00 00 00 00 00 00 00 00 00 00 00 ...  returns 0x00 (0002ms, 0264ms total)
T33BC 000:362 JLINK_ReadMem (0xE0002FF0, 0x0010 Bytes, ...) -- CPU is running -- CPU_ReadMem(16 bytes @ 0xE0002FF0) - Data: 0D 00 00 00 E0 00 00 00 05 00 00 00 B1 00 00 00  returns 0x00 (0001ms, 0265ms total)
T33BC 000:363 JLINK_ReadMem (0xE0002FD0, 0x0020 Bytes, ...) -- CPU is running -- CPU_ReadMem(32 bytes @ 0xE0002FD0) - Data: 04 00 00 00 00 00 00 00 00 00 00 00 00 00 00 00 ...  returns 0x00 (0001ms, 0266ms total)
T33BC 000:364 JLINK_ReadMemU32(0xE000ED00, 0x0001 Items, ...) -- CPU is running -- CPU_ReadMem(4 bytes @ 0xE000ED00) - Data: 00 C6 0C 41  returns 0x01 (0001ms, 0267ms total)
T33BC 000:365 JLINK_SetResetType(JLINKARM_RESET_TYPE_ADI)  returns JLINKARM_RESET_TYPE_NORMAL (0000ms, 0267ms total)
T33BC 000:365 JLINK_Reset() -- CPU is running -- CPU_WriteMem(4 bytes @ 0xE000EDF0) -- CPU is running -- CPU_WriteMem(4 bytes @ 0xE000EDFC) -- CPU_WriteMem(4 bytes @ 0xE000EDF0) -- CPU_WriteMem(4 bytes @ 0xE000EDFC) -- CPU_ReadMem(4 bytes @ 0xE000EDF0) -- CPU_WriteMem(4 bytes @ 0xE000EDFC) -- CPU_WriteMem(4 bytes @ 0xE000ED0C) -- CPU_ReadMem(4 bytes @ 0xE000EDF0) -- CPU_ReadMem(4 bytes @ 0xE000EDF0) -- CPU_WriteMem(4 bytes @ 0xE000EDF0) -- CPU_WriteMem(4 bytes @ 0xE000EDFC) -- CPU is running
 -- CPU_ReadMem(4 bytes @ 0xE000EDF0) -- CPU_WriteMem(4 bytes @ 0xE0002000) -- CPU_ReadMem(4 bytes @ 0xE000EDFC) -- CPU_ReadMem(4 bytes @ 0xE0001000) -- CPU_WriteMem(4 bytes @ 0xE0001000) (0168ms, 0435ms total)
T33BC 000:533 JLINK_ReadReg(R15 (PC))  returns 0x00000338 (0000ms, 0435ms total)
T33BC 000:533 JLINK_ReadReg(XPSR)  returns 0x81000000 (0000ms, 0435ms total)
T33BC 000:533 JLINK_Halt()  returns 0x00 (0000ms, 0435ms total)
T33BC 000:533 JLINK_IsHalted()  returns TRUE (0000ms, 0435ms total)
T33BC 000:533 JLINK_ReadMemU32(0xE000EDF0, 0x0001 Items, ...) -- CPU_ReadMem(4 bytes @ 0xE000EDF0) - Data: 03 00 03 01  returns 0x01 (0001ms, 0436ms total)
T33BC 000:534 JLINK_WriteU32(0xE000EDF0, 0xA05F0003) -- CPU_WriteMem(4 bytes @ 0xE000EDF0)  returns 0x00 (0001ms, 0437ms total)
T33BC 000:535 JLINK_WriteU32(0xE000EDFC, 0x01000000) -- CPU_WriteMem(4 bytes @ 0xE000EDFC)  returns 0x00 (0001ms, 0438ms total)
T33BC 000:537 JLINK_GetHWStatus(...)  returns 0x00 (0001ms, 0439ms total)
T33BC 000:542 JLINK_GetNumBPUnits(Type = 0xFFFFFF00)  returns 0x02 (0001ms, 0440ms total)
T33BC 000:543 JLINK_GetNumBPUnits(Type = 0xF0)  returns 0x2000 (0000ms, 0440ms total)
T33BC 000:543 JLINK_GetNumWPUnits()  returns 0x02 (0000ms, 0440ms total)
T33BC 000:543 JLINK_GetSpeed()  returns 0x3E8 (0000ms, 0440ms total)
T33BC 000:544 JLINK_ReadMemU32(0xE000E004, 0x0001 Items, ...) -- CPU_ReadMem(4 bytes @ 0xE000E004) - Data: 00 00 00 00  returns 0x01 (0001ms, 0441ms total)
T33BC 000:545 JLINK_ReadReg(R15 (PC))  returns 0x00000338 (0000ms, 0441ms total)
T33BC 000:545 JLINK_ReadReg(XPSR)  returns 0x81000000 (0000ms, 0441ms total)
T33BC 000:645 JLINK_SetResetType(JLINKARM_RESET_TYPE_ADI)  returns JLINKARM_RESET_TYPE_ADI (0000ms, 0441ms total)
T33BC 000:645 JLINK_Reset() -- CPU_WriteMem(4 bytes @ 0xE000EDF0) -- CPU_WriteMem(4 bytes @ 0xE000EDFC) -- CPU_WriteMem(4 bytes @ 0xE000EDF0) -- CPU_WriteMem(4 bytes @ 0xE000EDFC) -- CPU_ReadMem(4 bytes @ 0xE000EDF0) -- CPU_WriteMem(4 bytes @ 0xE000EDFC) -- CPU_WriteMem(4 bytes @ 0xE000ED0C) -- CPU_ReadMem(4 bytes @ 0xE000EDF0) -- CPU_ReadMem(4 bytes @ 0xE000EDF0) -- CPU_WriteMem(4 bytes @ 0xE000EDF0) -- CPU_WriteMem(4 bytes @ 0xE000EDFC) -- CPU is running -- CPU_ReadMem(4 bytes @ 0xE000EDF0)
 -- CPU_WriteMem(4 bytes @ 0xE0002000) -- CPU_ReadMem(4 bytes @ 0xE000EDFC) -- CPU_ReadMem(4 bytes @ 0xE0001000) -- CPU_WriteMem(4 bytes @ 0xE0001000) (0170ms, 0611ms total)
T33BC 000:815 JLINK_ReadReg(R15 (PC))  returns 0x00000338 (0000ms, 0611ms total)
T33BC 000:815 JLINK_ReadReg(XPSR)  returns 0x81000000 (0000ms, 0611ms total)
T33BC 000:816 JLINK_ReadMem (0x00000338, 0x003C Bytes, ...) -- CPU_ReadMem(128 bytes @ 0x00000300) -- Updating C cache (128 bytes @ 0x00000300) -- Read from C cache (60 bytes @ 0x00000338) - Data: 07 48 80 47 07 48 00 47 FE E7 FE E7 FE E7 FE E7 ...  returns 0x00 (0003ms, 0614ms total)
T33BC 001:256 JLINK_ReadMem (0x4004A000, 0x007C Bytes, ...) -- CPU_ReadMem(124 bytes @ 0x4004A000) - Data: AA AA AA AA AA AA AA AA AA AA AA AA AA AA AA AA ...  returns 0x01 (0003ms, 0617ms total)
T33BC 001:259 JLINK_ReadMem (0x4004A07C, 0x0004 Bytes, ...) -- CPU_ReadMem(4 bytes @ 0x4004A07C) - Data: AA AA AA AA  returns 0x01 (0001ms, 0618ms total)
T33BC 001:260 JLINK_ReadMem (0x4004A0A0, 0x0004 Bytes, ...) -- CPU_ReadMem(4 bytes @ 0x4004A0A0) - Data: AA AA AA AA  returns 0x01 (0001ms, 0619ms total)
T33BC 001:500 JLINK_ReadMem (0x400FF040, 0x0004 Bytes, ...) -- CPU_ReadMem(4 bytes @ 0x400FF040) - Data: 00 00 00 00  returns 0x00 (0001ms, 0620ms total)
T33BC 001:502 JLINK_ReadMem (0x400FF050, 0x0004 Bytes, ...) -- CPU_ReadMem(4 bytes @ 0x400FF050) - Data: 00 00 00 00  returns 0x00 (0001ms, 0621ms total)
T33BC 001:503 JLINK_ReadMem (0x400FF054, 0x0004 Bytes, ...) -- CPU_ReadMem(4 bytes @ 0x400FF054) - Data: 00 00 00 00  returns 0x00 (0001ms, 0622ms total)
T33BC 001:744 JLINK_ReadMem (0x40047000, 0x0004 Bytes, ...) -- CPU_ReadMem(4 bytes @ 0x40047000) - Data: 10 00 00 80  returns 0x00 (0001ms, 0623ms total)
T33BC 001:745 JLINK_ReadMem (0x40047004, 0x0004 Bytes, ...) -- CPU_ReadMem(4 bytes @ 0x40047004) - Data: 00 00 00 00  returns 0x00 (0001ms, 0624ms total)
T33BC 001:746 JLINK_ReadMem (0x40048004, 0x0004 Bytes, ...) -- CPU_ReadMem(4 bytes @ 0x40048004) - Data: 00 00 00 00  returns 0x00 (0002ms, 0626ms total)
T33BC 001:748 JLINK_ReadMem (0x4004800C, 0x0004 Bytes, ...) -- CPU_ReadMem(4 bytes @ 0x4004800C) - Data: 00 00 00 00  returns 0x00 (0001ms, 0627ms total)
T33BC 001:749 JLINK_ReadMem (0x40048010, 0x0004 Bytes, ...) -- CPU_ReadMem(4 bytes @ 0x40048010) - Data: 00 00 00 00  returns 0x00 (0001ms, 0628ms total)
T33BC 001:750 JLINK_ReadMem (0x40048018, 0x0004 Bytes, ...) -- CPU_ReadMem(4 bytes @ 0x40048018) - Data: 00 00 00 00  returns 0x00 (0001ms, 0629ms total)
T33BC 001:751 JLINK_ReadMem (0x40048024, 0x0004 Bytes, ...) -- CPU_ReadMem(4 bytes @ 0x40048024) - Data: 85 24 14 25  returns 0x00 (0001ms, 0630ms total)
T33BC 001:752 JLINK_ReadMem (0x40048034, 0x0010 Bytes, ...) -- CPU_ReadMem(16 bytes @ 0x40048034) - Data: 30 00 00 F0 80 01 00 00 01 00 00 00 00 01 00 00  returns 0x00 (0001ms, 0631ms total)
T33BC 001:753 JLINK_ReadMem (0x40048044, 0x0004 Bytes, ...) -- CPU_ReadMem(4 bytes @ 0x40048044) - Data: 00 00 01 00  returns 0x00 (0001ms, 0632ms total)
T33BC 001:754 JLINK_ReadMem (0x4004804C, 0x0004 Bytes, ...) -- CPU_ReadMem(4 bytes @ 0x4004804C) - Data: 00 00 00 05  returns 0x00 (0001ms, 0633ms total)
T33BC 001:755 JLINK_ReadMem (0x40048050, 0x0004 Bytes, ...) -- CPU_ReadMem(4 bytes @ 0x40048050) - Data: 00 00 80 08  returns 0x00 (0001ms, 0634ms total)
T33BC 001:756 JLINK_ReadMem (0x40048058, 0x0008 Bytes, ...) -- CPU_ReadMem(8 bytes @ 0x40048058) - Data: 14 00 00 00 19 20 5F 00  returns 0x00 (0001ms, 0635ms total)
T33BC 001:757 JLINK_ReadMem (0x40048060, 0x0004 Bytes, ...) -- CPU_ReadMem(4 bytes @ 0x40048060) - Data: 45 4E 52 25  returns 0x00 (0001ms, 0636ms total)
T33BC 001:758 JLINK_ReadMem (0x40048100, 0x0004 Bytes, ...) -- CPU_ReadMem(4 bytes @ 0x40048100) - Data: 0C 00 00 00  returns 0x00 (0001ms, 0637ms total)
T33BC 002:028 JLINK_ReadMem (0x4006A000, 0x0001 Bytes, ...) -- CPU_ReadMem(1 bytes @ 0x4006A000) - Data: AA  returns 0x01 (0001ms, 0638ms total)
T33BC 002:029 JLINK_ReadMem (0x4006A001, 0x0001 Bytes, ...) -- CPU_ReadMem(1 bytes @ 0x4006A001) - Data: AA  returns 0x01 (0001ms, 0639ms total)
T33BC 002:030 JLINK_ReadMem (0x4006A002, 0x0001 Bytes, ...) -- CPU_ReadMem(1 bytes @ 0x4006A002) - Data: AA  returns 0x01 (0001ms, 0640ms total)
T33BC 002:031 JLINK_ReadMem (0x4006A003, 0x0001 Bytes, ...) -- CPU_ReadMem(1 bytes @ 0x4006A003) - Data: AA  returns 0x01 (0001ms, 0641ms total)
T33BC 002:032 JLINK_ReadMem (0x4006A004, 0x0001 Bytes, ...) -- CPU_ReadMem(1 bytes @ 0x4006A004) - Data: AA  returns 0x01 (0002ms, 0643ms total)
T33BC 002:034 JLINK_ReadMem (0x4006A005, 0x0001 Bytes, ...) -- CPU_ReadMem(1 bytes @ 0x4006A005) - Data: AA  returns 0x01 (0001ms, 0644ms total)
T33BC 002:035 JLINK_ReadMem (0x4006A006, 0x0001 Bytes, ...) -- CPU_ReadMem(1 bytes @ 0x4006A006) - Data: AA  returns 0x01 (0001ms, 0645ms total)
T33BC 002:036 JLINK_ReadMem (0x4006A007, 0x0001 Bytes, ...) -- CPU_ReadMem(1 bytes @ 0x4006A007) - Data: AA  returns 0x01 (0001ms, 0646ms total)
T33BC 002:037 JLINK_ReadMem (0x4006A008, 0x0001 Bytes, ...) -- CPU_ReadMem(1 bytes @ 0x4006A008) - Data: AA  returns 0x01 (0002ms, 0648ms total)
T33BC 002:039 JLINK_ReadMem (0x4006A009, 0x0001 Bytes, ...) -- CPU_ReadMem(1 bytes @ 0x4006A009) - Data: AA  returns 0x01 (0001ms, 0649ms total)
T33BC 002:040 JLINK_ReadMem (0x4006A00A, 0x0001 Bytes, ...) -- CPU_ReadMem(1 bytes @ 0x4006A00A) - Data: AA  returns 0x01 (0001ms, 0650ms total)
T33BC 002:041 JLINK_ReadMem (0x4006A00B, 0x0001 Bytes, ...) -- CPU_ReadMem(1 bytes @ 0x4006A00B) - Data: AA  returns 0x01 (0001ms, 0651ms total)
T33BC 006:822 JLINK_ReadMem (0x1FFFF818, 0x0020 Bytes, ...) -- CPU_ReadMem(64 bytes @ 0x1FFFF800) -- Updating C cache (64 bytes @ 0x1FFFF800) -- Read from C cache (32 bytes @ 0x1FFFF818) - Data: 00 00 00 00 00 00 00 00 00 00 00 00 00 00 00 00 ...  returns 0x00 (0003ms, 0654ms total)
T33BC 006:877 JLINK_ReadMem (0x1FFFF808, 0x0004 Bytes, ...) -- Read from C cache (4 bytes @ 0x1FFFF808) - Data: 00 00 00 00  returns 0x00 (0000ms, 0654ms total)
T33BC 006:881 JLINK_ReadMem (0x1FFFF80C, 0x0004 Bytes, ...) -- Read from C cache (4 bytes @ 0x1FFFF80C) - Data: 00 00 00 00  returns 0x00 (0000ms, 0654ms total)
T33BC 006:883 JLINK_ReadMem (0x1FFFF814, 0x0004 Bytes, ...) -- Read from C cache (4 bytes @ 0x1FFFF814) - Data: 00 00 00 00  returns 0x00 (0000ms, 0654ms total)
T2A38 007:188 JLINK_SetBPEx(Addr = 0x00000658, Type = 0xFFFFFFF2)  returns 0x00000001 (0000ms, 0654ms total)
T2A38 007:188 JLINK_SetBPEx(Addr = 0x00000738, Type = 0xFFFFFFF2)  returns 0x00000002 (0000ms, 0654ms total)
T2A38 007:188 JLINK_SetBPEx(Addr = 0x00000730, Type = 0xFFFFFFF2) -- BP[0] @ 0x00000658 converted into FlashBP  returns 0x00000003 (0000ms, 0654ms total)
T2A38 007:188 JLINK_SetBPEx(Addr = 0x0000072A, Type = 0xFFFFFFF2) -- BP[1] @ 0x00000738 converted into FlashBP  returns 0x00000004 (0000ms, 0654ms total)
T2A38 007:188 JLINK_SetBPEx(Addr = 0x0000073A, Type = 0xFFFFFFF2) -- BP[2] @ 0x00000730 converted into FlashBP  returns 0x00000005 (0000ms, 0654ms total)
T2A38 007:188 JLINK_SetBPEx(Addr = 0x00000752, Type = 0xFFFFFFF2) -- BP[3] @ 0x0000072A converted into FlashBP  returns 0x00000006 (0000ms, 0654ms total)
T2A38 007:188 JLINK_Go() -- Read from C cache (2 bytes @ 0x00000338) -- Read from C cache (4 bytes @ 0x00000358) -- Simulated -- Read from C cache (2 bytes @ 0x0000033A) -- Simulated -- CPU_ReadMem(64 bytes @ 0x00000180) -- Updating C cache (64 bytes @ 0x00000180) -- Read from C cache (2 bytes @ 0x00000180) -- Simulated -- Read from C cache (2 bytes @ 0x00000182) -- Read from C cache (4 bytes @ 0x00000318) -- Simulated -- Read from C cache (2 bytes @ 0x00000184) -- Not simulated
 -- CPU_ReadMem(1024 bytes @ 0x00000400) -- Updating C cache (1024 bytes @ 0x00000400) -- Read from C cache (1024 bytes @ 0x00000400) -- Updating flash cache (1024 bytes @ 0x00000400) -- Programming range 0x00000400 - 0x000007FF (001 Sector, 1024 Bytes) -- CPU clock frequency: 28015 kHz -- CPU_WriteMem(4 bytes @ 0xE0002000) -- CPU_WriteMem(4 bytes @ 0xE0002000) -- CPU_ReadMem(4 bytes @ 0xE0001000) -- CPU_WriteMem(4 bytes @ 0xE0001000) -- CPU_WriteMem(4 bytes @ 0xE0002008)
 -- CPU_WriteMem(4 bytes @ 0xE000200C) (0362ms, 1016ms total)
T2A38 007:651 JLINK_IsHalted()  returns TRUE (0004ms, 1020ms total)
T2A38 007:656 JLINK_Halt()  returns 0x00 (0000ms, 1016ms total)
T2A38 007:656 JLINK_IsHalted()  returns TRUE (0000ms, 1016ms total)
T2A38 007:656 JLINK_IsHalted()  returns TRUE (0000ms, 1016ms total)
T2A38 007:656 JLINK_IsHalted()  returns TRUE (0000ms, 1016ms total)
T2A38 007:656 JLINK_ReadReg(R15 (PC))  returns 0x00000658 (0000ms, 1016ms total)
T2A38 007:656 JLINK_ReadReg(XPSR)  returns 0x61000000 (0000ms, 1016ms total)
T2A38 007:656 JLINK_ClrBPEx(BPHandle = 0x00000001)  returns 0x00 (0000ms, 1016ms total)
T2A38 007:656 JLINK_ClrBPEx(BPHandle = 0x00000002)  returns 0x00 (0000ms, 1016ms total)
T2A38 007:656 JLINK_ClrBPEx(BPHandle = 0x00000003)  returns 0x00 (0000ms, 1016ms total)
T2A38 007:656 JLINK_ClrBPEx(BPHandle = 0x00000004)  returns 0x00 (0000ms, 1016ms total)
T2A38 007:656 JLINK_ClrBPEx(BPHandle = 0x00000005)  returns 0x00 (0000ms, 1016ms total)
T2A38 007:656 JLINK_ClrBPEx(BPHandle = 0x00000006)  returns 0x00 (0000ms, 1016ms total)
T2A38 007:656 JLINK_ReadMemU32(0xE000ED30, 0x0001 Items, ...) -- CPU_ReadMem(4 bytes @ 0xE000ED30) - Data: 03 00 00 00  returns 0x01 (0001ms, 1017ms total)
T2A38 007:657 JLINK_ReadMemU32(0xE0001028, 0x0001 Items, ...) -- CPU_ReadMem(4 bytes @ 0xE0001028) - Data: 00 00 00 00  returns 0x01 (0001ms, 1018ms total)
T2A38 007:658 JLINK_ReadMemU32(0xE0001038, 0x0001 Items, ...) -- CPU_ReadMem(4 bytes @ 0xE0001038) - Data: 00 00 00 00  returns 0x01 (0001ms, 1019ms total)
T2A38 007:660 JLINK_ReadReg(R0)  returns 0x1FFFF978 (0000ms, 1019ms total)
T2A38 007:660 JLINK_ReadReg(R1)  returns 0x1FFFF978 (0000ms, 1019ms total)
T2A38 007:660 JLINK_ReadReg(R2)  returns 0x1FFFF978 (0000ms, 1019ms total)
T2A38 007:660 JLINK_ReadReg(R3)  returns 0x1FFFF978 (0000ms, 1019ms total)
T2A38 007:660 JLINK_ReadReg(R4)  returns 0x00003360 (0000ms, 1019ms total)
T2A38 007:660 JLINK_ReadReg(R5)  returns 0x1FFFF918 (0000ms, 1019ms total)
T2A38 007:660 JLINK_ReadReg(R6)  returns 0x00000000 (0000ms, 1019ms total)
T2A38 007:660 JLINK_ReadReg(R7)  returns 0x00000000 (0000ms, 1019ms total)
T2A38 007:660 JLINK_ReadReg(R8)  returns 0x00000000 (0000ms, 1019ms total)
T2A38 007:660 JLINK_ReadReg(R9)  returns 0x20000618 (0000ms, 1019ms total)
T2A38 007:660 JLINK_ReadReg(R10)  returns 0x00003360 (0000ms, 1019ms total)
T2A38 007:661 JLINK_ReadReg(R11)  returns 0x00003360 (0000ms, 1020ms total)
T2A38 007:661 JLINK_ReadReg(R12)  returns 0x00000000 (0000ms, 1020ms total)
T2A38 007:661 JLINK_ReadReg(R13 (SP))  returns 0x1FFFFD78 (0000ms, 1020ms total)
T2A38 007:661 JLINK_ReadReg(R14)  returns 0x0000016F (0000ms, 1020ms total)
T2A38 007:661 JLINK_ReadReg(R15 (PC))  returns 0x00000658 (0000ms, 1020ms total)
T2A38 007:661 JLINK_ReadReg(XPSR)  returns 0x61000000 (0000ms, 1020ms total)
T2A38 007:661 JLINK_ReadReg(MSP)  returns 0x1FFFFD78 (0000ms, 1020ms total)
T2A38 007:661 JLINK_ReadReg(PSP)  returns 0x20000800 (0000ms, 1020ms total)
T2A38 007:661 JLINK_ReadReg(CFBP)  returns 0x00000000 (0000ms, 1020ms total)
T33BC 007:662 JLINK_ReadMem (0x1FFFFCF8, 0x0020 Bytes, ...) -- CPU_ReadMem(128 bytes @ 0x1FFFFCC0) -- Updating C cache (128 bytes @ 0x1FFFFCC0) -- Read from C cache (32 bytes @ 0x1FFFFCF8) - Data: 00 00 00 00 00 00 00 00 00 00 00 00 00 00 00 00 ...  returns 0x00 (0003ms, 1023ms total)
T33BC 007:665 JLINK_ReadMem (0x00000000, 0x0004 Bytes, ...) -- CPU_ReadMem(64 bytes @ 0x00000000) -- Updating C cache (64 bytes @ 0x00000000) -- Read from C cache (4 bytes @ 0x00000000) - Data: 78 FD FF 1F  returns 0x00 (0002ms, 1025ms total)
T33BC 007:689 JLINK_ReadMem (0x1FFFF818, 0x0020 Bytes, ...) -- CPU_ReadMem(64 bytes @ 0x1FFFF800) -- Updating C cache (64 bytes @ 0x1FFFF800) -- Read from C cache (32 bytes @ 0x1FFFF818) - Data: 00 00 00 00 00 00 00 00 00 00 00 00 00 00 00 00 ...  returns 0x00 (0002ms, 1027ms total)
T33BC 007:742 JLINK_ReadMem (0x1FFFF808, 0x0004 Bytes, ...) -- Read from C cache (4 bytes @ 0x1FFFF808) - Data: 00 00 00 00  returns 0x00 (0000ms, 1027ms total)
T33BC 007:742 JLINK_ReadMem (0x1FFFF80C, 0x0004 Bytes, ...) -- Read from C cache (4 bytes @ 0x1FFFF80C) - Data: 00 00 00 00  returns 0x00 (0000ms, 1027ms total)
T33BC 007:742 JLINK_ReadMem (0x1FFFF814, 0x0004 Bytes, ...) -- Read from C cache (4 bytes @ 0x1FFFF814) - Data: 00 00 00 00  returns 0x00 (0000ms, 1027ms total)
T33BC 007:742 JLINK_ReadMem (0x4006A000, 0x0001 Bytes, ...) -- CPU_ReadMem(1 bytes @ 0x4006A000) - Data: AA  returns 0x01 (0001ms, 1028ms total)
T33BC 007:743 JLINK_ReadMem (0x4006A001, 0x0001 Bytes, ...) -- CPU_ReadMem(1 bytes @ 0x4006A001) - Data: AA  returns 0x01 (0002ms, 1030ms total)
T33BC 007:745 JLINK_ReadMem (0x4006A002, 0x0001 Bytes, ...) -- CPU_ReadMem(1 bytes @ 0x4006A002) - Data: AA  returns 0x01 (0001ms, 1031ms total)
T33BC 007:746 JLINK_ReadMem (0x4006A003, 0x0001 Bytes, ...) -- CPU_ReadMem(1 bytes @ 0x4006A003) - Data: AA  returns 0x01 (0002ms, 1033ms total)
T33BC 007:748 JLINK_ReadMem (0x4006A004, 0x0001 Bytes, ...) -- CPU_ReadMem(1 bytes @ 0x4006A004) - Data: AA  returns 0x01 (0001ms, 1034ms total)
T33BC 007:749 JLINK_ReadMem (0x4006A005, 0x0001 Bytes, ...) -- CPU_ReadMem(1 bytes @ 0x4006A005) - Data: AA  returns 0x01 (0002ms, 1036ms total)
T33BC 007:751 JLINK_ReadMem (0x4006A006, 0x0001 Bytes, ...) -- CPU_ReadMem(1 bytes @ 0x4006A006) - Data: AA  returns 0x01 (0001ms, 1037ms total)
T33BC 007:752 JLINK_ReadMem (0x4006A007, 0x0001 Bytes, ...) -- CPU_ReadMem(1 bytes @ 0x4006A007) - Data: AA  returns 0x01 (0002ms, 1039ms total)
T33BC 007:754 JLINK_ReadMem (0x4006A008, 0x0001 Bytes, ...) -- CPU_ReadMem(1 bytes @ 0x4006A008) - Data: AA  returns 0x01 (0001ms, 1040ms total)
T33BC 007:755 JLINK_ReadMem (0x4006A009, 0x0001 Bytes, ...) -- CPU_ReadMem(1 bytes @ 0x4006A009) - Data: AA  returns 0x01 (0001ms, 1041ms total)
T33BC 007:756 JLINK_ReadMem (0x4006A00A, 0x0001 Bytes, ...) -- CPU_ReadMem(1 bytes @ 0x4006A00A) - Data: AA  returns 0x01 (0002ms, 1043ms total)
T33BC 007:758 JLINK_ReadMem (0x4006A00B, 0x0001 Bytes, ...) -- CPU_ReadMem(1 bytes @ 0x4006A00B) - Data: AA  returns 0x01 (0001ms, 1044ms total)
T33BC 007:760 JLINK_ReadMem (0x4004A000, 0x007C Bytes, ...) -- CPU_ReadMem(124 bytes @ 0x4004A000) - Data: AA AA AA AA AA AA AA AA AA AA AA AA AA AA AA AA ...  returns 0x01 (0002ms, 1046ms total)
T33BC 007:762 JLINK_ReadMem (0x4004A07C, 0x0004 Bytes, ...) -- CPU_ReadMem(4 bytes @ 0x4004A07C) - Data: AA AA AA AA  returns 0x01 (0002ms, 1048ms total)
T33BC 007:764 JLINK_ReadMem (0x4004A0A0, 0x0004 Bytes, ...) -- CPU_ReadMem(4 bytes @ 0x4004A0A0) - Data: AA AA AA AA  returns 0x01 (0001ms, 1049ms total)
T33BC 007:767 JLINK_ReadMem (0x40047000, 0x0004 Bytes, ...) -- CPU_ReadMem(4 bytes @ 0x40047000) - Data: 10 00 00 80  returns 0x00 (0001ms, 1050ms total)
T33BC 007:768 JLINK_ReadMem (0x40047004, 0x0004 Bytes, ...) -- CPU_ReadMem(4 bytes @ 0x40047004) - Data: 00 00 00 00  returns 0x00 (0001ms, 1051ms total)
T33BC 007:769 JLINK_ReadMem (0x40048004, 0x0004 Bytes, ...) -- CPU_ReadMem(4 bytes @ 0x40048004) - Data: 00 00 00 00  returns 0x00 (0001ms, 1052ms total)
T33BC 007:770 JLINK_ReadMem (0x4004800C, 0x0004 Bytes, ...) -- CPU_ReadMem(4 bytes @ 0x4004800C) - Data: 00 00 00 00  returns 0x00 (0001ms, 1053ms total)
T33BC 007:771 JLINK_ReadMem (0x40048010, 0x0004 Bytes, ...) -- CPU_ReadMem(4 bytes @ 0x40048010) - Data: 00 00 00 00  returns 0x00 (0002ms, 1055ms total)
T33BC 007:773 JLINK_ReadMem (0x40048018, 0x0004 Bytes, ...) -- CPU_ReadMem(4 bytes @ 0x40048018) - Data: 00 00 00 00  returns 0x00 (0001ms, 1056ms total)
T33BC 007:774 JLINK_ReadMem (0x40048024, 0x0004 Bytes, ...) -- CPU_ReadMem(4 bytes @ 0x40048024) - Data: 85 24 14 25  returns 0x00 (0001ms, 1057ms total)
T33BC 007:775 JLINK_ReadMem (0x40048034, 0x0010 Bytes, ...) -- CPU_ReadMem(16 bytes @ 0x40048034) - Data: 30 00 00 F0 80 01 00 00 01 00 00 00 00 01 00 00  returns 0x00 (0001ms, 1058ms total)
T33BC 007:776 JLINK_ReadMem (0x40048044, 0x0004 Bytes, ...) -- CPU_ReadMem(4 bytes @ 0x40048044) - Data: 00 00 02 00  returns 0x00 (0001ms, 1059ms total)
T33BC 007:777 JLINK_ReadMem (0x4004804C, 0x0004 Bytes, ...) -- CPU_ReadMem(4 bytes @ 0x4004804C) - Data: 00 00 00 05  returns 0x00 (0002ms, 1061ms total)
T33BC 007:779 JLINK_ReadMem (0x40048050, 0x0004 Bytes, ...) -- CPU_ReadMem(4 bytes @ 0x40048050) - Data: 00 00 80 08  returns 0x00 (0001ms, 1062ms total)
T33BC 007:780 JLINK_ReadMem (0x40048058, 0x0008 Bytes, ...) -- CPU_ReadMem(8 bytes @ 0x40048058) - Data: 14 00 00 00 19 20 5F 00  returns 0x00 (0001ms, 1063ms total)
T33BC 007:781 JLINK_ReadMem (0x40048060, 0x0004 Bytes, ...) -- CPU_ReadMem(4 bytes @ 0x40048060) - Data: 45 4E 52 25  returns 0x00 (0001ms, 1064ms total)
T33BC 007:782 JLINK_ReadMem (0x40048100, 0x0004 Bytes, ...) -- CPU_ReadMem(4 bytes @ 0x40048100) - Data: 00 00 00 00  returns 0x00 (0001ms, 1065ms total)
T33BC 007:784 JLINK_ReadMem (0x400FF040, 0x0004 Bytes, ...) -- CPU_ReadMem(4 bytes @ 0x400FF040) - Data: 00 00 00 00  returns 0x00 (0001ms, 1066ms total)
T33BC 007:785 JLINK_ReadMem (0x400FF050, 0x0004 Bytes, ...) -- CPU_ReadMem(4 bytes @ 0x400FF050) - Data: 00 00 00 00  returns 0x00 (0001ms, 1067ms total)
T33BC 007:786 JLINK_ReadMem (0x400FF054, 0x0004 Bytes, ...) -- CPU_ReadMem(4 bytes @ 0x400FF054) - Data: 00 00 00 00  returns 0x00 (0001ms, 1068ms total)
T2A38 019:544 JLINK_SetBPEx(Addr = 0x00000738, Type = 0xFFFFFFF2)  returns 0x00000007 (0000ms, 1068ms total)
T2A38 019:544 JLINK_SetBPEx(Addr = 0x00000730, Type = 0xFFFFFFF2)  returns 0x00000008 (0001ms, 1069ms total)
T2A38 019:545 JLINK_SetBPEx(Addr = 0x0000072A, Type = 0xFFFFFFF2)  returns 0x00000009 (0000ms, 1069ms total)
T2A38 019:545 JLINK_SetBPEx(Addr = 0x0000073A, Type = 0xFFFFFFF2)  returns 0x0000000A (0000ms, 1069ms total)
T2A38 019:545 JLINK_SetBPEx(Addr = 0x00000752, Type = 0xFFFFFFF2)  returns 0x0000000B (0000ms, 1069ms total)
T2A38 019:545 JLINK_Go() -- Merging zombie BP[0]: 0xB0A0 @ 0x00000658 -- Merging zombie BP[0]: 0xB0A0 @ 0x00000658 -- CPU_ReadMem(4 bytes @ 0xE0001004) -- Simulated -- Read from flash cache (2 bytes @ 0x0000065A) -- Read from flash cache (2 bytes @ 0x0000065C) -- Simulated -- CPU_ReadMem(64 bytes @ 0x000001C0) -- Updating C cache (64 bytes @ 0x000001C0) -- Read from C cache (2 bytes @ 0x000001D6) -- CPU_WriteMem(16 bytes @ 0x1FFFFCE8) -- Simulated -- Read from C cache (2 bytes @ 0x000001D8)
 -- CPU_ReadMem(64 bytes @ 0x00000300) -- Updating C cache (64 bytes @ 0x00000300) -- Read from C cache (4 bytes @ 0x0000031C) -- Simulated -- Read from C cache (2 bytes @ 0x000001DA) -- Not simulated -- Read from flash cache (1024 bytes @ 0x00000400) -- Programming range 0x00000400 - 0x000007FF (001 Sector, 1024 Bytes) -- CPU clock frequency: 56040 kHz -- CPU_WriteMem(4 bytes @ 0xE0002000) -- CPU_WriteMem(4 bytes @ 0xE0002000) -- CPU_ReadMem(4 bytes @ 0xE0001000) -- CPU_WriteMem(4 bytes @ 0xE0001000)
 -- CPU_WriteMem(4 bytes @ 0xE0002008) -- CPU_WriteMem(4 bytes @ 0xE000200C) (0319ms, 1388ms total)
T2A38 019:965 JLINK_IsHalted()  returns TRUE (0005ms, 1393ms total)
T2A38 019:970 JLINK_Halt()  returns 0x00 (0000ms, 1388ms total)
T2A38 019:970 JLINK_IsHalted()  returns TRUE (0001ms, 1389ms total)
T2A38 019:971 JLINK_IsHalted()  returns TRUE (0000ms, 1388ms total)
T2A38 019:971 JLINK_IsHalted()  returns TRUE (0000ms, 1388ms total)
T2A38 019:971 JLINK_ReadReg(R15 (PC))  returns 0x0000072A (0000ms, 1388ms total)
T2A38 019:971 JLINK_ReadReg(XPSR)  returns 0x61000000 (0000ms, 1388ms total)
T2A38 019:971 JLINK_ClrBPEx(BPHandle = 0x00000007)  returns 0x00 (0000ms, 1388ms total)
T2A38 019:971 JLINK_ClrBPEx(BPHandle = 0x00000008)  returns 0x00 (0000ms, 1388ms total)
T2A38 019:971 JLINK_ClrBPEx(BPHandle = 0x00000009)  returns 0x00 (0000ms, 1388ms total)
T2A38 019:971 JLINK_ClrBPEx(BPHandle = 0x0000000A)  returns 0x00 (0000ms, 1388ms total)
T2A38 019:971 JLINK_ClrBPEx(BPHandle = 0x0000000B)  returns 0x00 (0000ms, 1388ms total)
T2A38 019:971 JLINK_ReadMemU32(0xE000ED30, 0x0001 Items, ...) -- CPU_ReadMem(4 bytes @ 0xE000ED30) - Data: 03 00 00 00  returns 0x01 (0001ms, 1389ms total)
T2A38 019:972 JLINK_ReadMemU32(0xE0001028, 0x0001 Items, ...) -- CPU_ReadMem(4 bytes @ 0xE0001028) - Data: 00 00 00 00  returns 0x01 (0001ms, 1390ms total)
T2A38 019:973 JLINK_ReadMemU32(0xE0001038, 0x0001 Items, ...) -- CPU_ReadMem(4 bytes @ 0xE0001038) - Data: 00 00 00 00  returns 0x01 (0001ms, 1391ms total)
T2A38 019:975 JLINK_ReadReg(R0)  returns 0x00000035 (0000ms, 1391ms total)
T2A38 019:975 JLINK_ReadReg(R1)  returns 0x4006A000 (0000ms, 1391ms total)
T2A38 019:975 JLINK_ReadReg(R2)  returns 0x00000080 (0000ms, 1391ms total)
T2A38 019:975 JLINK_ReadReg(R3)  returns 0x00000717 (0000ms, 1391ms total)
T2A38 019:975 JLINK_ReadReg(R4)  returns 0x00000017 (0000ms, 1391ms total)
T2A38 019:975 JLINK_ReadReg(R5)  returns 0x0000A3D7 (0000ms, 1391ms total)
T2A38 019:975 JLINK_ReadReg(R6)  returns 0x00000017 (0000ms, 1391ms total)
T2A38 019:975 JLINK_ReadReg(R7)  returns 0x00000000 (0001ms, 1392ms total)
T2A38 019:976 JLINK_ReadReg(R8)  returns 0x00000000 (0000ms, 1392ms total)
T2A38 019:976 JLINK_ReadReg(R9)  returns 0x20000618 (0000ms, 1392ms total)
T2A38 019:976 JLINK_ReadReg(R10)  returns 0x00003360 (0000ms, 1392ms total)
T2A38 019:976 JLINK_ReadReg(R11)  returns 0x00003360 (0000ms, 1392ms total)
T2A38 019:976 JLINK_ReadReg(R12)  returns 0x00000000 (0000ms, 1392ms total)
T2A38 019:976 JLINK_ReadReg(R13 (SP))  returns 0x1FFFFCF8 (0000ms, 1392ms total)
T2A38 019:976 JLINK_ReadReg(R14)  returns 0x00000725 (0000ms, 1392ms total)
T2A38 019:976 JLINK_ReadReg(R15 (PC))  returns 0x0000072A (0000ms, 1392ms total)
T2A38 019:976 JLINK_ReadReg(XPSR)  returns 0x61000000 (0000ms, 1392ms total)
T2A38 019:976 JLINK_ReadReg(MSP)  returns 0x1FFFFCF8 (0000ms, 1392ms total)
T2A38 019:976 JLINK_ReadReg(PSP)  returns 0x20000800 (0000ms, 1392ms total)
T2A38 019:976 JLINK_ReadReg(CFBP)  returns 0x00000000 (0000ms, 1392ms total)
T33BC 019:978 JLINK_ReadMem (0x1FFFFCF8, 0x0020 Bytes, ...) -- CPU_ReadMem(128 bytes @ 0x1FFFFCC0) -- Updating C cache (128 bytes @ 0x1FFFFCC0) -- Read from C cache (32 bytes @ 0x1FFFFCF8) - Data: 24 50 53 52 46 31 30 33 2C 30 30 2C 30 31 2C 30 ...  returns 0x00 (0003ms, 1396ms total)
T33BC 019:981 JLINK_ReadMem (0x00000000, 0x0004 Bytes, ...) -- CPU_ReadMem(64 bytes @ 0x00000000) -- Updating C cache (64 bytes @ 0x00000000) -- Read from C cache (4 bytes @ 0x00000000) - Data: 78 FD FF 1F  returns 0x00 (0002ms, 1398ms total)
T33BC 019:989 JLINK_ReadMem (0x1FFFF818, 0x0020 Bytes, ...) -- CPU_ReadMem(64 bytes @ 0x1FFFF800) -- Updating C cache (64 bytes @ 0x1FFFF800) -- Read from C cache (32 bytes @ 0x1FFFF818) - Data: 00 00 00 00 00 00 00 00 00 00 00 00 00 00 00 00 ...  returns 0x00 (0002ms, 1400ms total)
T33BC 019:992 JLINK_ReadMem (0x1FFFF808, 0x0004 Bytes, ...) -- Read from C cache (4 bytes @ 0x1FFFF808) - Data: 00 00 00 00  returns 0x00 (0000ms, 1400ms total)
T33BC 019:992 JLINK_ReadMem (0x1FFFF80C, 0x0004 Bytes, ...) -- Read from C cache (4 bytes @ 0x1FFFF80C) - Data: 00 00 00 00  returns 0x00 (0000ms, 1400ms total)
T33BC 019:992 JLINK_ReadMem (0x1FFFF814, 0x0004 Bytes, ...) -- Read from C cache (4 bytes @ 0x1FFFF814) - Data: 00 00 00 00  returns 0x00 (0000ms, 1400ms total)
T33BC 019:992 JLINK_ReadMem (0x4006A000, 0x0001 Bytes, ...) -- CPU_ReadMem(1 bytes @ 0x4006A000) - Data: 01  returns 0x00 (0001ms, 1401ms total)
T33BC 019:993 JLINK_ReadMem (0x4006A001, 0x0001 Bytes, ...) -- CPU_ReadMem(1 bytes @ 0x4006A001) - Data: 11  returns 0x00 (0002ms, 1403ms total)
T33BC 019:995 JLINK_ReadMem (0x4006A002, 0x0001 Bytes, ...) -- CPU_ReadMem(1 bytes @ 0x4006A002) - Data: 00  returns 0x00 (0000ms, 1403ms total)
T33BC 019:996 JLINK_ReadMem (0x4006A003, 0x0001 Bytes, ...) -- CPU_ReadMem(1 bytes @ 0x4006A003) - Data: 0C  returns 0x00 (0001ms, 1404ms total)
T33BC 019:997 JLINK_ReadMem (0x4006A004, 0x0001 Bytes, ...) -- CPU_ReadMem(1 bytes @ 0x4006A004) - Data: C0  returns 0x00 (0001ms, 1405ms total)
T33BC 019:998 JLINK_ReadMem (0x4006A005, 0x0001 Bytes, ...) -- CPU_ReadMem(1 bytes @ 0x4006A005) - Data: 00  returns 0x00 (0001ms, 1406ms total)
T33BC 019:999 JLINK_ReadMem (0x4006A006, 0x0001 Bytes, ...) -- CPU_ReadMem(1 bytes @ 0x4006A006) - Data: 00  returns 0x00 (0001ms, 1407ms total)
T33BC 020:000 JLINK_ReadMem (0x4006A007, 0x0001 Bytes, ...) -- CPU_ReadMem(1 bytes @ 0x4006A007) - Data: 00  returns 0x00 (0001ms, 1408ms total)
T33BC 020:001 JLINK_ReadMem (0x4006A008, 0x0001 Bytes, ...) -- CPU_ReadMem(1 bytes @ 0x4006A008) - Data: 00  returns 0x00 (0001ms, 1409ms total)
T33BC 020:002 JLINK_ReadMem (0x4006A009, 0x0001 Bytes, ...) -- CPU_ReadMem(1 bytes @ 0x4006A009) - Data: 00  returns 0x00 (0001ms, 1410ms total)
T33BC 020:004 JLINK_ReadMem (0x4006A00A, 0x0001 Bytes, ...) -- CPU_ReadMem(1 bytes @ 0x4006A00A) - Data: 1F  returns 0x00 (0001ms, 1411ms total)
T33BC 020:005 JLINK_ReadMem (0x4006A00B, 0x0001 Bytes, ...) -- CPU_ReadMem(1 bytes @ 0x4006A00B) - Data: 00  returns 0x00 (0001ms, 1412ms total)
T33BC 020:122 JLINK_ReadMem (0x4004A000, 0x007C Bytes, ...) -- CPU_ReadMem(124 bytes @ 0x4004A000) - Data: 05 00 00 00 05 00 00 00 05 00 00 00 05 00 00 00 ...  returns 0x00 (0003ms, 1415ms total)
T33BC 020:125 JLINK_ReadMem (0x4004A07C, 0x0004 Bytes, ...) -- CPU_ReadMem(4 bytes @ 0x4004A07C) - Data: 00 00 00 00  returns 0x00 (0001ms, 1416ms total)
T33BC 020:126 JLINK_ReadMem (0x4004A0A0, 0x0004 Bytes, ...) -- CPU_ReadMem(4 bytes @ 0x4004A0A0) - Data: 00 00 00 00  returns 0x00 (0001ms, 1417ms total)
T33BC 020:137 JLINK_ReadMem (0x40047000, 0x0004 Bytes, ...) -- CPU_ReadMem(4 bytes @ 0x40047000) - Data: 10 00 00 80  returns 0x00 (0001ms, 1418ms total)
T33BC 020:138 JLINK_ReadMem (0x40047004, 0x0004 Bytes, ...) -- CPU_ReadMem(4 bytes @ 0x40047004) - Data: 00 00 00 00  returns 0x00 (0001ms, 1419ms total)
T33BC 020:139 JLINK_ReadMem (0x40048004, 0x0004 Bytes, ...) -- CPU_ReadMem(4 bytes @ 0x40048004) - Data: 00 00 00 04  returns 0x00 (0001ms, 1420ms total)
T33BC 020:140 JLINK_ReadMem (0x4004800C, 0x0004 Bytes, ...) -- CPU_ReadMem(4 bytes @ 0x4004800C) - Data: 00 00 00 00  returns 0x00 (0001ms, 1421ms total)
T33BC 020:141 JLINK_ReadMem (0x40048010, 0x0004 Bytes, ...) -- CPU_ReadMem(4 bytes @ 0x40048010) - Data: 00 00 00 00  returns 0x00 (0001ms, 1422ms total)
T33BC 020:142 JLINK_ReadMem (0x40048018, 0x0004 Bytes, ...) -- CPU_ReadMem(4 bytes @ 0x40048018) - Data: 00 00 00 00  returns 0x00 (0001ms, 1423ms total)
T33BC 020:143 JLINK_ReadMem (0x40048024, 0x0004 Bytes, ...) -- CPU_ReadMem(4 bytes @ 0x40048024) - Data: 85 24 14 25  returns 0x00 (0001ms, 1424ms total)
T33BC 020:144 JLINK_ReadMem (0x40048034, 0x0010 Bytes, ...) -- CPU_ReadMem(16 bytes @ 0x40048034) - Data: 30 04 00 F0 80 3F 00 00 01 00 00 00 00 01 00 00  returns 0x00 (0002ms, 1426ms total)
T33BC 020:146 JLINK_ReadMem (0x40048044, 0x0004 Bytes, ...) -- CPU_ReadMem(4 bytes @ 0x40048044) - Data: 00 00 02 00  returns 0x00 (0001ms, 1427ms total)
T33BC 020:147 JLINK_ReadMem (0x4004804C, 0x0004 Bytes, ...) -- CPU_ReadMem(4 bytes @ 0x4004804C) - Data: 00 00 00 05  returns 0x00 (0001ms, 1428ms total)
T33BC 020:148 JLINK_ReadMem (0x40048050, 0x0004 Bytes, ...) -- CPU_ReadMem(4 bytes @ 0x40048050) - Data: 00 00 80 08  returns 0x00 (0001ms, 1429ms total)
T33BC 020:149 JLINK_ReadMem (0x40048058, 0x0008 Bytes, ...) -- CPU_ReadMem(8 bytes @ 0x40048058) - Data: 14 00 00 00 19 20 5F 00  returns 0x00 (0001ms, 1430ms total)
T33BC 020:150 JLINK_ReadMem (0x40048060, 0x0004 Bytes, ...) -- CPU_ReadMem(4 bytes @ 0x40048060) - Data: 45 4E 52 25  returns 0x00 (0002ms, 1432ms total)
T33BC 020:152 JLINK_ReadMem (0x40048100, 0x0004 Bytes, ...) -- CPU_ReadMem(4 bytes @ 0x40048100) - Data: 00 00 00 00  returns 0x00 (0001ms, 1433ms total)
T33BC 020:162 JLINK_ReadMem (0x400FF040, 0x0004 Bytes, ...) -- CPU_ReadMem(4 bytes @ 0x400FF040) - Data: 00 00 04 00  returns 0x00 (0002ms, 1435ms total)
T33BC 020:164 JLINK_ReadMem (0x400FF050, 0x0004 Bytes, ...) -- CPU_ReadMem(4 bytes @ 0x400FF050) - Data: 00 00 04 00  returns 0x00 (0001ms, 1436ms total)
T33BC 020:165 JLINK_ReadMem (0x400FF054, 0x0004 Bytes, ...) -- CPU_ReadMem(4 bytes @ 0x400FF054) - Data: 00 00 08 00  returns 0x00 (0001ms, 1437ms total)
T33BC 020:170 JLINK_ReadMem (0x0000072A, 0x0002 Bytes, ...) -- Merging zombie BP[2]: 0x200D @ 0x0000072A -- Merging zombie BP[2]: 0x200D @ 0x0000072A - Data: 0D 20  returns 0x00 (0001ms, 1438ms total)
T33BC 020:171 JLINK_ReadMem (0x0000072C, 0x003C Bytes, ...) -- Read from flash cache (60 bytes @ 0x0000072C) -- Merging zombie BP[0]: 0xBF00 @ 0x00000738 -- Merging zombie BP[1]: 0x200A @ 0x00000730 - Data: 00 F0 52 F9 0A 20 00 F0 4F F9 17 E0 00 BF 42 48 ...  returns 0x00 (0000ms, 1438ms total)
T2A38 020:333 JLINK_Step() -- Merging zombie BP[2]: 0x200D @ 0x0000072A -- Merging zombie BP[2]: 0x200D @ 0x0000072A -- CPU_ReadMem(4 bytes @ 0xE0001004) -- Simulated  returns 0x00 (0001ms, 1439ms total)
T2A38 020:334 JLINK_ReadReg(R15 (PC))  returns 0x0000072C (0000ms, 1439ms total)
T2A38 020:334 JLINK_ReadReg(XPSR)  returns 0x21000000 (0000ms, 1439ms total)
T2A38 020:334 JLINK_SetBPEx(Addr = 0x00000738, Type = 0xFFFFFFF2)  returns 0x0000000C (0000ms, 1439ms total)
T2A38 020:334 JLINK_SetBPEx(Addr = 0x00000730, Type = 0xFFFFFFF2)  returns 0x0000000D (0000ms, 1439ms total)
T2A38 020:334 JLINK_SetBPEx(Addr = 0x0000072A, Type = 0xFFFFFFF2)  returns 0x0000000E (0000ms, 1439ms total)
T2A38 020:334 JLINK_SetBPEx(Addr = 0x0000073A, Type = 0xFFFFFFF2)  returns 0x0000000F (0000ms, 1439ms total)
T2A38 020:335 JLINK_SetBPEx(Addr = 0x00000752, Type = 0xFFFFFFF2)  returns 0x00000010 (0000ms, 1439ms total)
T2A38 020:335 JLINK_Go() -- CPU_WriteMem(4 bytes @ 0xE0002000) -- CPU_WriteMem(4 bytes @ 0xE0002000) -- CPU_ReadMem(4 bytes @ 0xE0001000) -- CPU_WriteMem(4 bytes @ 0xE0001000) -- CPU_WriteMem(4 bytes @ 0xE0001004) (0007ms, 1446ms total)
T2A38 020:443 JLINK_IsHalted()  returns TRUE (0005ms, 1451ms total)
T2A38 020:448 JLINK_Halt()  returns 0x00 (0000ms, 1446ms total)
T2A38 020:448 JLINK_IsHalted()  returns TRUE (0000ms, 1446ms total)
T2A38 020:448 JLINK_IsHalted()  returns TRUE (0000ms, 1446ms total)
T2A38 020:448 JLINK_IsHalted()  returns TRUE (0000ms, 1446ms total)
T2A38 020:448 JLINK_ReadReg(R15 (PC))  returns 0x00000730 (0000ms, 1446ms total)
T2A38 020:448 JLINK_ReadReg(XPSR)  returns 0x21000000 (0000ms, 1446ms total)
T2A38 020:448 JLINK_ClrBPEx(BPHandle = 0x0000000C)  returns 0x00 (0000ms, 1446ms total)
T2A38 020:448 JLINK_ClrBPEx(BPHandle = 0x0000000D)  returns 0x00 (0000ms, 1446ms total)
T2A38 020:448 JLINK_ClrBPEx(BPHandle = 0x0000000E)  returns 0x00 (0000ms, 1446ms total)
T2A38 020:448 JLINK_ClrBPEx(BPHandle = 0x0000000F)  returns 0x00 (0000ms, 1446ms total)
T2A38 020:448 JLINK_ClrBPEx(BPHandle = 0x00000010)  returns 0x00 (0000ms, 1446ms total)
T2A38 020:448 JLINK_ReadMemU32(0xE000ED30, 0x0001 Items, ...) -- CPU_ReadMem(4 bytes @ 0xE000ED30) - Data: 03 00 00 00  returns 0x01 (0002ms, 1448ms total)
T2A38 020:450 JLINK_ReadMemU32(0xE0001028, 0x0001 Items, ...) -- CPU_ReadMem(4 bytes @ 0xE0001028) - Data: 00 00 00 00  returns 0x01 (0001ms, 1449ms total)
T2A38 020:451 JLINK_ReadMemU32(0xE0001038, 0x0001 Items, ...) -- CPU_ReadMem(4 bytes @ 0xE0001038) - Data: 00 00 00 00  returns 0x01 (0001ms, 1450ms total)
T2A38 020:452 JLINK_ReadReg(R0)  returns 0x0000000D (0000ms, 1450ms total)
T2A38 020:452 JLINK_ReadReg(R1)  returns 0x4006A000 (0000ms, 1450ms total)
T2A38 020:452 JLINK_ReadReg(R2)  returns 0x00000080 (0000ms, 1450ms total)
T2A38 020:452 JLINK_ReadReg(R3)  returns 0x00000717 (0000ms, 1450ms total)
T2A38 020:452 JLINK_ReadReg(R4)  returns 0x00000017 (0000ms, 1450ms total)
T2A38 020:452 JLINK_ReadReg(R5)  returns 0x0000A3D7 (0000ms, 1450ms total)
T2A38 020:452 JLINK_ReadReg(R6)  returns 0x00000017 (0000ms, 1450ms total)
T2A38 020:452 JLINK_ReadReg(R7)  returns 0x00000000 (0001ms, 1451ms total)
T2A38 020:453 JLINK_ReadReg(R8)  returns 0x00000000 (0000ms, 1451ms total)
T2A38 020:453 JLINK_ReadReg(R9)  returns 0x20000618 (0000ms, 1451ms total)
T2A38 020:453 JLINK_ReadReg(R10)  returns 0x00003360 (0000ms, 1451ms total)
T2A38 020:453 JLINK_ReadReg(R11)  returns 0x00003360 (0000ms, 1451ms total)
T2A38 020:453 JLINK_ReadReg(R12)  returns 0x00000000 (0000ms, 1451ms total)
T2A38 020:453 JLINK_ReadReg(R13 (SP))  returns 0x1FFFFCF8 (0000ms, 1451ms total)
T2A38 020:453 JLINK_ReadReg(R14)  returns 0x00000731 (0000ms, 1451ms total)
T2A38 020:453 JLINK_ReadReg(R15 (PC))  returns 0x00000730 (0000ms, 1451ms total)
T2A38 020:453 JLINK_ReadReg(XPSR)  returns 0x21000000 (0000ms, 1451ms total)
T2A38 020:453 JLINK_ReadReg(MSP)  returns 0x1FFFFCF8 (0000ms, 1451ms total)
T2A38 020:453 JLINK_ReadReg(PSP)  returns 0x20000800 (0000ms, 1451ms total)
T2A38 020:453 JLINK_ReadReg(CFBP)  returns 0x00000000 (0000ms, 1451ms total)
T33BC 020:458 JLINK_ReadMem (0x1FFFFCF8, 0x0020 Bytes, ...) -- CPU_ReadMem(128 bytes @ 0x1FFFFCC0) -- Updating C cache (128 bytes @ 0x1FFFFCC0) -- Read from C cache (32 bytes @ 0x1FFFFCF8) - Data: 24 50 53 52 46 31 30 33 2C 30 30 2C 30 31 2C 30 ...  returns 0x00 (0003ms, 1454ms total)
T33BC 020:461 JLINK_ReadMem (0x00000000, 0x0004 Bytes, ...) -- CPU_ReadMem(64 bytes @ 0x00000000) -- Updating C cache (64 bytes @ 0x00000000) -- Read from C cache (4 bytes @ 0x00000000) - Data: 78 FD FF 1F  returns 0x00 (0002ms, 1456ms total)
T33BC 020:472 JLINK_ReadMem (0x1FFFF818, 0x0020 Bytes, ...) -- CPU_ReadMem(64 bytes @ 0x1FFFF800) -- Updating C cache (64 bytes @ 0x1FFFF800) -- Read from C cache (32 bytes @ 0x1FFFF818) - Data: 00 00 00 00 00 00 00 00 00 00 00 00 00 00 00 00 ...  returns 0x00 (0002ms, 1458ms total)
T33BC 020:475 JLINK_ReadMem (0x1FFFF808, 0x0004 Bytes, ...) -- Read from C cache (4 bytes @ 0x1FFFF808) - Data: 00 00 00 00  returns 0x00 (0000ms, 1458ms total)
T33BC 020:475 JLINK_ReadMem (0x1FFFF80C, 0x0004 Bytes, ...) -- Read from C cache (4 bytes @ 0x1FFFF80C) - Data: 00 00 00 00  returns 0x00 (0000ms, 1458ms total)
T33BC 020:475 JLINK_ReadMem (0x1FFFF814, 0x0004 Bytes, ...) -- Read from C cache (4 bytes @ 0x1FFFF814) - Data: 00 00 00 00  returns 0x00 (0000ms, 1458ms total)
T33BC 020:475 JLINK_ReadMem (0x4006A000, 0x0001 Bytes, ...) -- CPU_ReadMem(1 bytes @ 0x4006A000) - Data: 01  returns 0x00 (0001ms, 1459ms total)
T33BC 020:476 JLINK_ReadMem (0x4006A001, 0x0001 Bytes, ...) -- CPU_ReadMem(1 bytes @ 0x4006A001) - Data: 11  returns 0x00 (0001ms, 1460ms total)
T33BC 020:477 JLINK_ReadMem (0x4006A002, 0x0001 Bytes, ...) -- CPU_ReadMem(1 bytes @ 0x4006A002) - Data: 00  returns 0x00 (0001ms, 1461ms total)
T33BC 020:478 JLINK_ReadMem (0x4006A003, 0x0001 Bytes, ...) -- CPU_ReadMem(1 bytes @ 0x4006A003) - Data: 0C  returns 0x00 (0002ms, 1463ms total)
T33BC 020:480 JLINK_ReadMem (0x4006A004, 0x0001 Bytes, ...) -- CPU_ReadMem(1 bytes @ 0x4006A004) - Data: C0  returns 0x00 (0001ms, 1464ms total)
T33BC 020:481 JLINK_ReadMem (0x4006A005, 0x0001 Bytes, ...) -- CPU_ReadMem(1 bytes @ 0x4006A005) - Data: 00  returns 0x00 (0001ms, 1465ms total)
T33BC 020:482 JLINK_ReadMem (0x4006A006, 0x0001 Bytes, ...) -- CPU_ReadMem(1 bytes @ 0x4006A006) - Data: 00  returns 0x00 (0001ms, 1466ms total)
T33BC 020:483 JLINK_ReadMem (0x4006A007, 0x0001 Bytes, ...) -- CPU_ReadMem(1 bytes @ 0x4006A007) - Data: 00  returns 0x00 (0001ms, 1467ms total)
T33BC 020:484 JLINK_ReadMem (0x4006A008, 0x0001 Bytes, ...) -- CPU_ReadMem(1 bytes @ 0x4006A008) - Data: 00  returns 0x00 (0001ms, 1468ms total)
T33BC 020:485 JLINK_ReadMem (0x4006A009, 0x0001 Bytes, ...) -- CPU_ReadMem(1 bytes @ 0x4006A009) - Data: 00  returns 0x00 (0001ms, 1469ms total)
T33BC 020:486 JLINK_ReadMem (0x4006A00A, 0x0001 Bytes, ...) -- CPU_ReadMem(1 bytes @ 0x4006A00A) - Data: 1F  returns 0x00 (0001ms, 1470ms total)
T33BC 020:487 JLINK_ReadMem (0x4006A00B, 0x0001 Bytes, ...) -- CPU_ReadMem(1 bytes @ 0x4006A00B) - Data: 00  returns 0x00 (0001ms, 1471ms total)
T33BC 020:489 JLINK_ReadMem (0x4004A000, 0x007C Bytes, ...) -- CPU_ReadMem(124 bytes @ 0x4004A000) - Data: 05 00 00 00 05 00 00 00 05 00 00 00 05 00 00 00 ...  returns 0x00 (0002ms, 1473ms total)
T33BC 020:491 JLINK_ReadMem (0x4004A07C, 0x0004 Bytes, ...) -- CPU_ReadMem(4 bytes @ 0x4004A07C) - Data: 00 00 00 00  returns 0x00 (0001ms, 1474ms total)
T33BC 020:492 JLINK_ReadMem (0x4004A0A0, 0x0004 Bytes, ...) -- CPU_ReadMem(4 bytes @ 0x4004A0A0) - Data: 00 00 00 00  returns 0x00 (0001ms, 1475ms total)
T33BC 020:495 JLINK_ReadMem (0x40047000, 0x0004 Bytes, ...) -- CPU_ReadMem(4 bytes @ 0x40047000) - Data: 10 00 00 80  returns 0x00 (0002ms, 1477ms total)
T33BC 020:497 JLINK_ReadMem (0x40047004, 0x0004 Bytes, ...) -- CPU_ReadMem(4 bytes @ 0x40047004) - Data: 00 00 00 00  returns 0x00 (0001ms, 1478ms total)
T33BC 020:498 JLINK_ReadMem (0x40048004, 0x0004 Bytes, ...) -- CPU_ReadMem(4 bytes @ 0x40048004) - Data: 00 00 00 04  returns 0x00 (0002ms, 1480ms total)
T33BC 020:500 JLINK_ReadMem (0x4004800C, 0x0004 Bytes, ...) -- CPU_ReadMem(4 bytes @ 0x4004800C) - Data: 00 00 00 00  returns 0x00 (0001ms, 1481ms total)
T33BC 020:501 JLINK_ReadMem (0x40048010, 0x0004 Bytes, ...) -- CPU_ReadMem(4 bytes @ 0x40048010) - Data: 00 00 00 00  returns 0x00 (0001ms, 1482ms total)
T33BC 020:502 JLINK_ReadMem (0x40048018, 0x0004 Bytes, ...) -- CPU_ReadMem(4 bytes @ 0x40048018) - Data: 00 00 00 00  returns 0x00 (0001ms, 1483ms total)
T33BC 020:504 JLINK_ReadMem (0x40048024, 0x0004 Bytes, ...) -- CPU_ReadMem(4 bytes @ 0x40048024) - Data: 85 24 14 25  returns 0x00 (0001ms, 1484ms total)
T33BC 020:505 JLINK_ReadMem (0x40048034, 0x0010 Bytes, ...) -- CPU_ReadMem(16 bytes @ 0x40048034) - Data: 30 04 00 F0 80 3F 00 00 01 00 00 00 00 01 00 00  returns 0x00 (0001ms, 1485ms total)
T33BC 020:506 JLINK_ReadMem (0x40048044, 0x0004 Bytes, ...) -- CPU_ReadMem(4 bytes @ 0x40048044) - Data: 00 00 02 00  returns 0x00 (0001ms, 1486ms total)
T33BC 020:507 JLINK_ReadMem (0x4004804C, 0x0004 Bytes, ...) -- CPU_ReadMem(4 bytes @ 0x4004804C) - Data: 00 00 00 05  returns 0x00 (0001ms, 1487ms total)
T33BC 020:508 JLINK_ReadMem (0x40048050, 0x0004 Bytes, ...) -- CPU_ReadMem(4 bytes @ 0x40048050) - Data: 00 00 80 08  returns 0x00 (0001ms, 1488ms total)
T33BC 020:509 JLINK_ReadMem (0x40048058, 0x0008 Bytes, ...) -- CPU_ReadMem(8 bytes @ 0x40048058) - Data: 14 00 00 00 19 20 5F 00  returns 0x00 (0001ms, 1489ms total)
T33BC 020:510 JLINK_ReadMem (0x40048060, 0x0004 Bytes, ...) -- CPU_ReadMem(4 bytes @ 0x40048060) - Data: 45 4E 52 25  returns 0x00 (0001ms, 1490ms total)
T33BC 020:511 JLINK_ReadMem (0x40048100, 0x0004 Bytes, ...) -- CPU_ReadMem(4 bytes @ 0x40048100) - Data: 00 00 00 00  returns 0x00 (0001ms, 1491ms total)
T33BC 020:515 JLINK_ReadMem (0x400FF040, 0x0004 Bytes, ...) -- CPU_ReadMem(4 bytes @ 0x400FF040) - Data: 00 00 04 00  returns 0x00 (0001ms, 1492ms total)
T33BC 020:516 JLINK_ReadMem (0x400FF050, 0x0004 Bytes, ...) -- CPU_ReadMem(4 bytes @ 0x400FF050) - Data: 00 00 04 00  returns 0x00 (0001ms, 1493ms total)
T33BC 020:517 JLINK_ReadMem (0x400FF054, 0x0004 Bytes, ...) -- CPU_ReadMem(4 bytes @ 0x400FF054) - Data: 00 00 08 00  returns 0x00 (0001ms, 1494ms total)
T33BC 020:523 JLINK_ReadMem (0x00000730, 0x003C Bytes, ...) -- Read from flash cache (60 bytes @ 0x00000730) -- Merging zombie BP[0]: 0xBF00 @ 0x00000738 -- Merging zombie BP[1]: 0x200A @ 0x00000730 - Data: 0A 20 00 F0 4F F9 17 E0 00 BF 42 48 40 30 00 69 ...  returns 0x00 (0000ms, 1494ms total)
